T0E80 000:012.973   SEGGER J-Link V6.70e Log File
T0E80 000:013.244   DLL Compiled: Apr 17 2020 17:55:05
T0E80 000:013.279   Logging started @ 2020-10-29 10:53
T0E80 000:013.317 JLINK_SetWarnOutHandler(...)
T0E80 000:013.354 - 0.053ms
T0E80 000:013.393 JLINK_OpenEx(...)
T0E80 000:016.281   Firmware: J-Link ARM V8 compiled Nov 28 2014 13:44:46
T0E80 000:021.334   Hardware: V8.00
T0E80 000:021.410   S/N: 4294967295
T0E80 000:021.461   OEM: SEGGER
T0E80 000:021.511   Feature(s): RDI,FlashDL,FlashBP,JFlash,GDB
T0E80 000:024.218   TELNET listener socket opened on port 19021
T0E80 000:024.516   WEBSRV Starting webserver
T0E80 000:024.761   WEBSRV Webserver running on local port 19080
T0E80 000:024.818 - 11.443ms returns "O.K."
T0E80 000:024.868 JLINK_GetEmuCaps()
T0E80 000:024.904 - 0.052ms returns 0xB9FF7BBF
T0E80 000:024.944 JLINK_TIF_GetAvailable(...)
T0E80 000:025.560 - 0.644ms
T0E80 000:025.615 JLINK_SetErrorOutHandler(...)
T0E80 000:025.649 - 0.051ms
T0E80 000:025.701 JLINK_ExecCommand("ProjectFile = "C:\Users\Lenovo\Desktop\RoboMaster-hero\hero_new\MDK-ARM\JLinkSettings.ini"", ...). 
T0E80 000:038.741 - 13.079ms returns 0x00
T0E80 000:047.592 JLINK_ExecCommand("Device = STM32F427VITx", ...). 
T0E80 000:052.430   Device "STM32F427VI" selected.
T0E80 000:053.111 - 5.475ms returns 0x00
T0E80 000:053.166 JLINK_ExecCommand("DisableConnectionTimeout", ...). 
T0E80 000:053.215 - 0.024ms returns 0x01
T0E80 000:053.258 JLINK_GetHardwareVersion()
T0E80 000:053.296 - 0.057ms returns 0x13880
T0E80 000:053.338 JLINK_GetDLLVersion()  returns 67005
T0E80 000:053.389 JLINK_GetFirmwareString(...)
T0E80 000:053.428 - 0.057ms
T0E80 000:071.808 JLINK_GetDLLVersion()  returns 67005
T0E80 000:071.871 JLINK_GetCompileDateTime()
T0E80 000:071.905 - 0.050ms
T0E80 000:078.756 JLINK_GetFirmwareString(...)
T0E80 000:078.817 - 0.078ms
T0E80 000:081.368 JLINK_GetHardwareVersion()
T0E80 000:081.417 - 0.065ms returns 0x13880
T0E80 000:090.789 JLINK_TIF_Select(JLINKARM_TIF_SWD)
T0E80 000:093.054 - 2.313ms returns 0x00
T0E80 000:093.162 JLINK_SetSpeed(5000)
T0E80 000:093.622 - 0.493ms
T0E80 000:093.686 JLINK_GetId()
T0E80 000:099.606   Found SW-DP with ID 0x2BA01477
T0E80 000:137.918   Found SW-DP with ID 0x2BA01477
T0E80 000:147.740   Old FW that does not support reading DPIDR via DAP jobs
T0E80 000:164.040   Unknown DP version. Assuming DPv0
T0E80 000:166.358   Scanning AP map to find all available APs
T0E80 000:182.135   AP[1]: Stopped AP scan as end of AP map has been reached
T0E80 000:185.225   AP[0]: AHB-AP (IDR: 0x24770011)
T0E80 000:187.530   Iterating through AP map to find AHB-AP to use
T0E80 000:205.658   AP[0]: Core found
T0E80 000:211.151   AP[0]: AHB-AP ROM base: 0xE00FF000
T0E80 000:227.968   CPUID register: 0x410FC241. Implementer code: 0x41 (ARM)
T0E80 000:235.166   Found Cortex-M4 r0p1, Little endian.
T0E80 000:338.156    -- Max. mem block: 0x00002408
T0E80 000:338.302   CPU_ReadMem(4 bytes @ 0xE000EDF0)
T0E80 000:339.720   CPU_WriteMem(4 bytes @ 0xE000EDF0)
T0E80 000:340.602   CPU_ReadMem(4 bytes @ 0xE0002000)
T0E80 000:346.854   FPUnit: 6 code (BP) slots and 2 literal slots
T0E80 000:346.978   CPU_ReadMem(4 bytes @ 0xE000EDFC)
T0E80 000:347.883   CPU_WriteMem(4 bytes @ 0xE000EDFC)
T0E80 000:348.924   CPU_ReadMem(4 bytes @ 0xE0001000)
T0E80 000:350.014   CPU_WriteMem(4 bytes @ 0xE0001000)
T0E80 000:351.131   CPU_ReadMem(4 bytes @ 0xE000ED88)
T0E80 000:352.179   CPU_WriteMem(4 bytes @ 0xE000ED88)
T0E80 000:353.222   CPU_ReadMem(4 bytes @ 0xE000ED88)
T0E80 000:354.226   CPU_WriteMem(4 bytes @ 0xE000ED88)
T0E80 000:363.184   CoreSight components:
T0E80 000:371.802   ROMTbl[0] @ E00FF000
T0E80 000:371.970   CPU_ReadMem(64 bytes @ 0xE00FF000)
T0E80 000:373.437   CPU_ReadMem(32 bytes @ 0xE000EFE0)
T0E80 000:383.077   ROMTbl[0][0]: E000E000, CID: B105E00D, PID: 000BB00C SCS-M7
T0E80 000:383.212   CPU_ReadMem(32 bytes @ 0xE0001FE0)
T0E80 000:388.708   ROMTbl[0][1]: E0001000, CID: B105E00D, PID: 003BB002 DWT
T0E80 000:388.794   CPU_ReadMem(32 bytes @ 0xE0002FE0)
T0E80 000:392.461   ROMTbl[0][2]: E0002000, CID: B105E00D, PID: 002BB003 FPB
T0E80 000:392.623   CPU_ReadMem(32 bytes @ 0xE0000FE0)
T0E80 000:396.496   ROMTbl[0][3]: E0000000, CID: B105E00D, PID: 003BB001 ITM
T0E80 000:396.585   CPU_ReadMem(32 bytes @ 0xE0040FE0)
T0E80 000:401.947   ROMTbl[0][4]: E0040000, CID: B105900D, PID: 000BB9A1 TPIU
T0E80 000:402.025   CPU_ReadMem(32 bytes @ 0xE0041FE0)
T0E80 000:405.583   ROMTbl[0][5]: E0041000, CID: B105900D, PID: 000BB925 ETM
T0E80 000:407.158 - 313.527ms   returns 0x2BA01477
T0E80 000:407.247 JLINK_GetDLLVersion()  returns 67005
T0E80 000:407.293 JLINK_CORE_GetFound()
T0E80 000:407.328 - 0.052ms returns 0xE0000FF
T0E80 000:407.367 JLINK_GetDebugInfo(0x100 = JLINKARM_ROM_TABLE_ADDR_INDEX)
T0E80 000:407.410   Value=0xE00FF000
T0E80 000:407.460 - 0.109ms returns 0x00
T0E80 000:412.580 JLINK_GetDebugInfo(0x100 = JLINKARM_ROM_TABLE_ADDR_INDEX)
T0E80 000:412.639   Value=0xE00FF000
T0E80 000:412.689 - 0.125ms returns 0x00
T0E80 000:412.726 JLINK_GetDebugInfo(0x101 = JLINKARM_DEBUG_INFO_ETM_ADDR_INDEX)
T0E80 000:412.760   Value=0xE0041000
T0E80 000:412.809 - 0.099ms returns 0x00
T0E80 000:412.855   JLINK_ReadMemEx(0xE0041FD0, 0x0020 Bytes, ..., Flags = 0x02000004)
T0E80 000:412.927   CPU_ReadMem(32 bytes @ 0xE0041FD0)
T0E80 000:413.957   Data:  04 00 00 00 00 00 00 00 00 00 00 00 00 00 00 00 ...
T0E80 000:414.016 - 1.181ms returns 0x20
T0E80 000:414.056 JLINK_GetDebugInfo(0x102 = JLINKARM_DEBUG_INFO_MTB_ADDR_INDEX)
T0E80 000:414.091   Value=0x00000000
T0E80 000:414.140 - 0.100ms returns 0x00
T0E80 000:414.176 JLINK_GetDebugInfo(0x103 = JLINKARM_DEBUG_INFO_TPIU_ADDR_INDEX)
T0E80 000:414.210   Value=0xE0040000
T0E80 000:414.259 - 0.100ms returns 0x00
T0E80 000:414.295 JLINK_GetDebugInfo(0x104 = JLINKARM_DEBUG_INFO_ITM_ADDR_INDEX)
T0E80 000:414.329   Value=0xE0000000
T0E80 000:414.378 - 0.099ms returns 0x00
T0E80 000:414.414 JLINK_GetDebugInfo(0x105 = JLINKARM_DEBUG_INFO_DWT_ADDR_INDEX)
T0E80 000:414.447   Value=0xE0001000
T0E80 000:414.496 - 0.099ms returns 0x00
T0E80 000:414.532 JLINK_GetDebugInfo(0x106 = JLINKARM_DEBUG_INFO_FPB_ADDR_INDEX)
T0E80 000:414.575   Value=0xE0002000
T0E80 000:414.624 - 0.109ms returns 0x00
T0E80 000:414.660 JLINK_GetDebugInfo(0x107 = JLINKARM_DEBUG_INFO_NVIC_ADDR_INDEX)
T0E80 000:414.694   Value=0xE000E000
T0E80 000:414.743 - 0.099ms returns 0x00
T0E80 000:414.779 JLINK_GetDebugInfo(0x10C = JLINKARM_DEBUG_INFO_DBG_ADDR_INDEX)
T0E80 000:414.813   Value=0xE000EDF0
T0E80 000:414.862 - 0.099ms returns 0x00
T0E80 000:414.898 JLINK_GetDebugInfo(0x01 = Unknown)
T0E80 000:414.935   Value=0x00000001
T0E80 000:414.984 - 0.102ms returns 0x00
T0E80 000:415.023 JLINK_ReadMemU32(0xE000ED00, 0x0001 Items, ...)
T0E80 000:415.063   CPU_ReadMem(4 bytes @ 0xE000ED00)
T0E80 000:415.999   Data:  41 C2 0F 41
T0E80 000:416.065    - CPUID
T0E80 000:416.115 - 1.109ms returns 1
T0E80 000:416.154 JLINK_GetDebugInfo(0x10F = JLINKARM_DEBUG_INFO_HAS_CORTEX_M_SECURITY_EXT_INDEX)
T0E80 000:416.189   Value=0x00000000
T0E80 000:416.239 - 0.100ms returns 0x00
T0E80 000:416.279 JLINK_SetResetType(JLINKARM_CM3_RESET_TYPE_NORMAL)
T0E80 000:416.313 - 0.050ms returns JLINKARM_CM3_RESET_TYPE_NORMAL
T0E80 000:416.349 JLINK_Reset()
T0E80 000:416.400   CPU is running
T0E80 000:416.452   CPU_WriteMem(4 bytes @ 0xE000EDF0)
T0E80 000:417.533   CPU is running
T0E80 000:417.632   CPU_WriteMem(4 bytes @ 0xE000EDFC)
T0E80 000:421.373   Reset: Halt core after reset via DEMCR.VC_CORERESET.
T0E80 000:426.017   Reset: Reset device via AIRCR.SYSRESETREQ.
T0E80 000:426.106   CPU is running
T0E80 000:426.162   CPU_WriteMem(4 bytes @ 0xE000ED0C)
T0E80 000:480.701   CPU_ReadMem(4 bytes @ 0xE000EDF0)
T0E80 000:481.892   CPU_ReadMem(4 bytes @ 0xE000EDF0)
T0E80 000:483.040   CPU is running
T0E80 000:483.210   CPU_WriteMem(4 bytes @ 0xE000EDF0)
T0E80 000:484.357   CPU is running
T0E80 000:484.526   CPU_WriteMem(4 bytes @ 0xE000EDFC)
T0E80 000:491.000   CPU_ReadMem(4 bytes @ 0xE000EDF0)
T0E80 000:495.768   CPU_WriteMem(4 bytes @ 0xE0002000)
T0E80 000:496.823   CPU_ReadMem(4 bytes @ 0xE000EDFC)
T0E80 000:497.791   CPU_ReadMem(4 bytes @ 0xE0001000)
T0E80 000:498.795 - 82.499ms
T0E80 000:498.937 JLINK_Halt()
T0E80 000:499.013 - 0.106ms returns 0x00
T0E80 000:499.091 JLINK_ReadMemU32(0xE000EDF0, 0x0001 Items, ...)
T0E80 000:499.219   CPU_ReadMem(4 bytes @ 0xE000EDF0)
T0E80 000:500.156   Data:  03 00 03 00
T0E80 000:500.270    - DHCSR
T0E80 000:500.363 - 1.304ms returns 1
T0E80 000:500.443 JLINK_WriteU32(0xE000EDF0, 0xA05F0003)
T0E80 000:500.509    - DHCSR
T0E80 000:500.630   CPU_WriteMem(4 bytes @ 0xE000EDF0)
T0E80 000:501.654 - 1.257ms returns 0
T0E80 000:501.747 JLINK_WriteU32(0xE000EDFC, 0x01000000)
T0E80 000:501.810    - DEMCR
T0E80 000:501.923   CPU_WriteMem(4 bytes @ 0xE000EDFC)
T0E80 000:502.938 - 1.257ms returns 0
T0E80 000:516.652 JLINK_GetHWStatus(...)
T0E80 000:517.380 - 0.756ms returns 0x00
T0E80 000:523.617 JLINK_GetNumBPUnits(Type = 0xFFFFFF00)
T0E80 000:523.680 - 0.079ms returns 0x06
T0E80 000:523.717 JLINK_GetNumBPUnits(Type = 0xF0)
T0E80 000:523.751 - 0.050ms returns 0x2000
T0E80 000:523.787 JLINK_GetNumWPUnits()
T0E80 000:523.829 - 0.058ms returns 0x04
T0E80 000:536.667 JLINK_GetSpeed()
T0E80 000:536.737 - 0.087ms returns 0xFA0
T0E80 000:542.950 JLINK_ReadMemU32(0xE000E004, 0x0001 Items, ...)
T0E80 000:543.038   CPU_ReadMem(4 bytes @ 0xE000E004)
T0E80 000:544.134   Data:  02 00 00 00
T0E80 000:544.196 - 1.263ms returns 1
T0E80 000:544.237 JLINK_ReadMemU32(0xE000E004, 0x0001 Items, ...)
T0E80 000:544.278   CPU_ReadMem(4 bytes @ 0xE000E004)
T0E80 000:545.176   Data:  02 00 00 00
T0E80 000:545.237 - 1.017ms returns 1
T0E80 000:545.278 JLINK_WriteMemEx(0xE0001000, 0x001C Bytes, ..., Flags = 0x02000004)
T0E80 000:545.314   Data:  01 00 00 00 00 00 00 00 00 00 00 00 00 00 00 00 ...
T0E80 000:546.002   CPU_WriteMem(28 bytes @ 0xE0001000)
T0E80 000:547.038 - 1.788ms returns 0x1C
T0E80 000:547.095 JLINK_Halt()
T0E80 000:547.131 - 0.052ms returns 0x00
T0E80 000:547.168 JLINK_IsHalted()
T0E80 000:547.203 - 0.052ms returns TRUE
T0E80 000:553.816 JLINK_WriteMem(0x20000000, 0x0198 Bytes, ...)
T0E80 000:553.861   Data:  00 BE 0A E0 0D 78 2D 06 68 40 08 24 40 00 00 D3 ...
T0E80 000:554.545   CPU_WriteMem(408 bytes @ 0x20000000)
T0E80 000:557.989 - 4.386ms returns 0x198
T0E80 000:558.413 JLINK_WriteReg(R0, 0x08000000)
T0E80 000:558.471 - 0.079ms returns 0x00
T0E80 000:558.515 JLINK_WriteReg(R1, 0x0ABA9500)
T0E80 000:558.556 - 0.060ms returns 0x00
T0E80 000:558.598 JLINK_WriteReg(R2, 0x00000001)
T0E80 000:558.638 - 0.059ms returns 0x00
T0E80 000:558.680 JLINK_WriteReg(R3, 0x00000000)
T0E80 000:558.722 - 0.061ms returns 0x00
T0E80 000:558.764 JLINK_WriteReg(R4, 0x00000000)
T0E80 000:558.803 - 0.059ms returns 0x00
T0E80 000:558.845 JLINK_WriteReg(R5, 0x00000000)
T0E80 000:558.884 - 0.058ms returns 0x00
T0E80 000:558.927 JLINK_WriteReg(R6, 0x00000000)
T0E80 000:558.966 - 0.058ms returns 0x00
T0E80 000:559.008 JLINK_WriteReg(R7, 0x00000000)
T0E80 000:559.047 - 0.058ms returns 0x00
T0E80 000:559.088 JLINK_WriteReg(R8, 0x00000000)
T0E80 000:559.127 - 0.058ms returns 0x00
T0E80 000:559.168 JLINK_WriteReg(R9, 0x20000194)
T0E80 000:559.208 - 0.058ms returns 0x00
T0E80 000:559.249 JLINK_WriteReg(R10, 0x00000000)
T0E80 000:559.288 - 0.058ms returns 0x00
T0E80 000:559.330 JLINK_WriteReg(R11, 0x00000000)
T0E80 000:559.370 - 0.058ms returns 0x00
T0E80 000:559.411 JLINK_WriteReg(R12, 0x00000000)
T0E80 000:559.451 - 0.059ms returns 0x00
T0E80 000:559.493 JLINK_WriteReg(R13 (SP), 0x20001000)
T0E80 000:559.534 - 0.060ms returns 0x00
T0E80 000:559.576 JLINK_WriteReg(R14, 0x20000001)
T0E80 000:559.635 - 0.082ms returns 0x00
T0E80 000:559.684 JLINK_WriteReg(R15 (PC), 0x2000005E)
T0E80 000:559.731 - 0.070ms returns 0x00
T0E80 000:559.781 JLINK_WriteReg(XPSR, 0x01000000)
T0E80 000:559.827 - 0.068ms returns 0x00
T0E80 000:559.875 JLINK_WriteReg(MSP, 0x20001000)
T0E80 000:559.921 - 0.067ms returns 0x00
T0E80 000:559.969 JLINK_WriteReg(PSP, 0x20001000)
T0E80 000:560.014 - 0.067ms returns 0x00
T0E80 000:560.062 JLINK_WriteReg(CFBP, 0x00000000)
T0E80 000:560.112 - 0.076ms returns 0x00
T0E80 000:560.166   JLINK_SetBPEx(Addr = 0x20000000, Type = 0xFFFFFFF2)
T0E80 000:560.242   CPU_ReadMem(2 bytes @ 0x20000000)
T0E80 000:561.377 - 1.266ms returns 0x00000001
T0E80 000:561.467 JLINK_Go()
T0E80 000:561.524   CPU_WriteMem(2 bytes @ 0x20000000)
T0E80 000:562.772   CPU_ReadMem(4 bytes @ 0xE0001000)
T0E80 000:563.832   CPU_WriteMem(4 bytes @ 0xE0002008)
T0E80 000:563.923   CPU_WriteMem(4 bytes @ 0xE000200C)
T0E80 000:563.983   CPU_WriteMem(4 bytes @ 0xE0002010)
T0E80 000:564.041   CPU_WriteMem(4 bytes @ 0xE0002014)
T0E80 000:564.099   CPU_WriteMem(4 bytes @ 0xE0002018)
T0E80 000:564.157   CPU_WriteMem(4 bytes @ 0xE000201C)
T0E80 000:566.892   CPU_WriteMem(4 bytes @ 0xE0001004)
T0E80 000:570.941 - 9.507ms
T0E80 000:571.003 JLINK_IsHalted()
T0E80 000:574.494   CPU_ReadMem(2 bytes @ 0x20000000)
T0E80 000:575.626 - 4.655ms returns TRUE
T0E80 000:575.689 JLINK_ReadReg(R15 (PC))
T0E80 000:575.737 - 0.068ms returns 0x20000000
T0E80 000:575.781 JLINK_ClrBPEx(BPHandle = 0x00000001)
T0E80 000:575.821 - 0.060ms returns 0x00
T0E80 000:575.864 JLINK_ReadReg(R0)
T0E80 000:575.904 - 0.059ms returns 0x00000000
T0E80 000:576.418 JLINK_WriteReg(R0, 0x08000000)
T0E80 000:576.468 - 0.070ms returns 0x00
T0E80 000:576.510 JLINK_WriteReg(R1, 0x00004000)
T0E80 000:576.550 - 0.058ms returns 0x00
T0E80 000:576.591 JLINK_WriteReg(R2, 0x000000FF)
T0E80 000:576.630 - 0.057ms returns 0x00
T0E80 000:576.673 JLINK_WriteReg(R3, 0x00000000)
T0E80 000:576.712 - 0.058ms returns 0x00
T0E80 000:576.753 JLINK_WriteReg(R4, 0x00000000)
T0E80 000:576.793 - 0.059ms returns 0x00
T0E80 000:576.834 JLINK_WriteReg(R5, 0x00000000)
T0E80 000:576.873 - 0.058ms returns 0x00
T0E80 000:576.914 JLINK_WriteReg(R6, 0x00000000)
T0E80 000:576.953 - 0.058ms returns 0x00
T0E80 000:576.994 JLINK_WriteReg(R7, 0x00000000)
T0E80 000:577.033 - 0.057ms returns 0x00
T0E80 000:577.074 JLINK_WriteReg(R8, 0x00000000)
T0E80 000:577.113 - 0.058ms returns 0x00
T0E80 000:577.154 JLINK_WriteReg(R9, 0x20000194)
T0E80 000:577.193 - 0.058ms returns 0x00
T0E80 000:577.234 JLINK_WriteReg(R10, 0x00000000)
T0E80 000:577.273 - 0.058ms returns 0x00
T0E80 000:577.314 JLINK_WriteReg(R11, 0x00000000)
T0E80 000:577.353 - 0.058ms returns 0x00
T0E80 000:577.395 JLINK_WriteReg(R12, 0x00000000)
T0E80 000:577.433 - 0.058ms returns 0x00
T0E80 000:577.475 JLINK_WriteReg(R13 (SP), 0x20001000)
T0E80 000:577.515 - 0.059ms returns 0x00
T0E80 000:577.556 JLINK_WriteReg(R14, 0x20000001)
T0E80 000:577.595 - 0.058ms returns 0x00
T0E80 000:577.636 JLINK_WriteReg(R15 (PC), 0x20000020)
T0E80 000:577.677 - 0.060ms returns 0x00
T0E80 000:577.718 JLINK_WriteReg(XPSR, 0x01000000)
T0E80 000:577.757 - 0.058ms returns 0x00
T0E80 000:577.799 JLINK_WriteReg(MSP, 0x20001000)
T0E80 000:577.837 - 0.057ms returns 0x00
T0E80 000:577.879 JLINK_WriteReg(PSP, 0x20001000)
T0E80 000:577.917 - 0.058ms returns 0x00
T0E80 000:577.959 JLINK_WriteReg(CFBP, 0x00000000)
T0E80 000:577.998 - 0.058ms returns 0x00
T0E80 000:578.040   JLINK_SetBPEx(Addr = 0x20000000, Type = 0xFFFFFFF2)
T0E80 000:578.099 - 0.079ms returns 0x00000002
T0E80 000:578.141 JLINK_Go()
T0E80 000:578.192   CPU_ReadMem(4 bytes @ 0xE0001000)
T0E80 000:582.173 - 4.063ms
T0E80 000:582.229 JLINK_IsHalted()
T0E80 000:585.246   CPU_ReadMem(2 bytes @ 0x20000000)
T0E80 000:586.171 - 3.970ms returns TRUE
T0E80 000:586.229 JLINK_ReadReg(R15 (PC))
T0E80 000:586.268 - 0.056ms returns 0x20000000
T0E80 000:586.308 JLINK_ClrBPEx(BPHandle = 0x00000002)
T0E80 000:586.343 - 0.052ms returns 0x00
T0E80 000:586.382 JLINK_ReadReg(R0)
T0E80 000:586.417 - 0.052ms returns 0x00000001
T0E80 000:586.461 JLINK_WriteReg(R0, 0x08000000)
T0E80 000:586.497 - 0.053ms returns 0x00
T0E80 000:586.535 JLINK_WriteReg(R1, 0x00004000)
T0E80 000:586.570 - 0.052ms returns 0x00
T0E80 000:586.609 JLINK_WriteReg(R2, 0x000000FF)
T0E80 000:586.695 - 0.107ms returns 0x00
T0E80 000:586.743 JLINK_WriteReg(R3, 0x00000000)
T0E80 000:586.783 - 0.059ms returns 0x00
T0E80 000:586.835 JLINK_WriteReg(R4, 0x00000000)
T0E80 000:586.954 - 0.139ms returns 0x00
T0E80 000:586.999 JLINK_WriteReg(R5, 0x00000000)
T0E80 000:587.038 - 0.058ms returns 0x00
T0E80 000:587.081 JLINK_WriteReg(R6, 0x00000000)
T0E80 000:587.120 - 0.058ms returns 0x00
T0E80 000:587.163 JLINK_WriteReg(R7, 0x00000000)
T0E80 000:587.202 - 0.057ms returns 0x00
T0E80 000:587.245 JLINK_WriteReg(R8, 0x00000000)
T0E80 000:587.283 - 0.058ms returns 0x00
T0E80 000:587.326 JLINK_WriteReg(R9, 0x20000194)
T0E80 000:587.365 - 0.058ms returns 0x00
T0E80 000:587.409 JLINK_WriteReg(R10, 0x00000000)
T0E80 000:587.447 - 0.057ms returns 0x00
T0E80 000:587.491 JLINK_WriteReg(R11, 0x00000000)
T0E80 000:587.530 - 0.058ms returns 0x00
T0E80 000:587.574 JLINK_WriteReg(R12, 0x00000000)
T0E80 000:587.613 - 0.067ms returns 0x00
T0E80 000:587.667 JLINK_WriteReg(R13 (SP), 0x20001000)
T0E80 000:587.706 - 0.059ms returns 0x00
T0E80 000:587.750 JLINK_WriteReg(R14, 0x20000001)
T0E80 000:587.789 - 0.058ms returns 0x00
T0E80 000:587.832 JLINK_WriteReg(R15 (PC), 0x200000D4)
T0E80 000:587.873 - 0.060ms returns 0x00
T0E80 000:587.918 JLINK_WriteReg(XPSR, 0x01000000)
T0E80 000:587.962 - 0.063ms returns 0x00
T0E80 000:588.006 JLINK_WriteReg(MSP, 0x20001000)
T0E80 000:588.045 - 0.058ms returns 0x00
T0E80 000:588.089 JLINK_WriteReg(PSP, 0x20001000)
T0E80 000:588.127 - 0.071ms returns 0x00
T0E80 000:588.181 JLINK_WriteReg(CFBP, 0x00000000)
T0E80 000:588.215 - 0.050ms returns 0x00
T0E80 000:588.255   JLINK_SetBPEx(Addr = 0x20000000, Type = 0xFFFFFFF2)
T0E80 000:588.306 - 0.069ms returns 0x00000003
T0E80 000:588.345 JLINK_Go()
T0E80 000:588.388   CPU_ReadMem(4 bytes @ 0xE0001000)
T0E80 000:592.114 - 3.827ms
T0E80 000:592.213 JLINK_IsHalted()
T0E80 000:593.009 - 0.835ms returns FALSE
T0E80 000:614.705 JLINK_IsHalted()
T0E80 000:615.775 - 1.124ms returns FALSE
T0E80 000:621.579 JLINK_IsHalted()
T0E80 000:622.326 - 0.783ms returns FALSE
T0E80 000:623.611 JLINK_IsHalted()
T0E80 000:624.432 - 0.860ms returns FALSE
T0E80 000:626.575 JLINK_IsHalted()
T0E80 000:627.366 - 0.827ms returns FALSE
T0E80 000:633.585 JLINK_IsHalted()
T0E80 000:634.461 - 0.903ms returns FALSE
T0E80 000:636.572 JLINK_IsHalted()
T0E80 000:637.418 - 0.893ms returns FALSE
T0E80 000:639.070 JLINK_IsHalted()
T0E80 000:639.929 - 0.906ms returns FALSE
T0E80 000:641.601 JLINK_IsHalted()
T0E80 000:642.491 - 0.935ms returns FALSE
T0E80 000:643.900 JLINK_IsHalted()
T0E80 000:644.768 - 0.917ms returns FALSE
T0E80 000:646.848 JLINK_IsHalted()
T0E80 000:647.728 - 0.936ms returns FALSE
T0E80 000:657.732 JLINK_IsHalted()
T0E80 000:658.756 - 1.075ms returns FALSE
T0E80 000:668.752 JLINK_IsHalted()
T0E80 000:669.900 - 1.212ms returns FALSE
T0E80 000:671.823 JLINK_IsHalted()
T0E80 000:672.800 - 1.042ms returns FALSE
T0E80 000:674.824 JLINK_IsHalted()
T0E80 000:675.881 - 1.126ms returns FALSE
T0E80 000:677.797 JLINK_IsHalted()
T0E80 000:678.713 - 0.963ms returns FALSE
T0E80 000:686.725 JLINK_IsHalted()
T0E80 000:687.671 - 0.996ms returns FALSE
T0E80 000:700.851 JLINK_IsHalted()
T0E80 000:701.846 - 1.051ms returns FALSE
T0E80 000:712.798 JLINK_IsHalted()
T0E80 000:714.158 - 1.405ms returns FALSE
T0E80 000:715.753 JLINK_IsHalted()
T0E80 000:716.670 - 0.957ms returns FALSE
T0E80 000:718.610 JLINK_IsHalted()
T0E80 000:719.488 - 0.909ms returns FALSE
T0E80 000:725.715 JLINK_IsHalted()
T0E80 000:726.830 - 1.183ms returns FALSE
T0E80 000:728.633 JLINK_IsHalted()
T0E80 000:729.709 - 1.142ms returns FALSE
T0E80 000:731.930 JLINK_IsHalted()
T0E80 000:733.153 - 1.290ms returns FALSE
T0E80 000:734.904 JLINK_IsHalted()
T0E80 000:736.098 - 1.262ms returns FALSE
T0E80 000:737.624 JLINK_IsHalted()
T0E80 000:738.557 - 0.978ms returns FALSE
T0E80 000:740.669 JLINK_IsHalted()
T0E80 000:741.665 - 1.047ms returns FALSE
T0E80 000:748.833 JLINK_IsHalted()
T0E80 000:749.720 - 0.916ms returns FALSE
T0E80 000:751.755 JLINK_IsHalted()
T0E80 000:752.668 - 0.941ms returns FALSE
T0E80 000:760.766 JLINK_IsHalted()
T0E80 000:761.709 - 0.973ms returns FALSE
T0E80 000:763.784 JLINK_IsHalted()
T0E80 000:764.729 - 0.971ms returns FALSE
T0E80 000:766.687 JLINK_IsHalted()
T0E80 000:767.539 - 0.877ms returns FALSE
T0E80 000:768.918 JLINK_IsHalted()
T0E80 000:770.255 - 1.382ms returns FALSE
T0E80 000:771.837 JLINK_IsHalted()
T0E80 000:772.868 - 1.092ms returns FALSE
T0E80 000:788.694 JLINK_IsHalted()
T0E80 000:789.508 - 0.850ms returns FALSE
T0E80 000:790.775 JLINK_IsHalted()
T0E80 000:792.127 - 1.396ms returns FALSE
T0E80 000:793.719 JLINK_IsHalted()
T0E80 000:794.961 - 1.287ms returns FALSE
T0E80 000:796.618 JLINK_IsHalted()
T0E80 000:797.450 - 0.871ms returns FALSE
T0E80 000:803.747 JLINK_IsHalted()
T0E80 000:804.873 - 1.170ms returns FALSE
T0E80 000:806.638 JLINK_IsHalted()
T0E80 000:807.549 - 0.941ms returns FALSE
T0E80 000:808.929 JLINK_IsHalted()
T0E80 000:810.230 - 1.344ms returns FALSE
T0E80 000:811.624 JLINK_IsHalted()
T0E80 000:812.438 - 0.841ms returns FALSE
T0E80 000:817.656 JLINK_IsHalted()
T0E80 000:818.758 - 1.142ms returns FALSE
T0E80 000:820.667 JLINK_IsHalted()
T0E80 000:821.843 - 1.221ms returns FALSE
T0E80 000:823.657 JLINK_IsHalted()
T0E80 000:824.773 - 1.160ms returns FALSE
T0E80 000:826.594 JLINK_IsHalted()
T0E80 000:827.589 - 1.035ms returns FALSE
T0E80 000:829.698 JLINK_IsHalted()
T0E80 000:831.005 - 1.361ms returns FALSE
T0E80 000:832.698 JLINK_IsHalted()
T0E80 000:833.690 - 1.037ms returns FALSE
T0E80 000:841.575 JLINK_IsHalted()
T0E80 000:843.012 - 1.483ms returns FALSE
T0E80 000:844.637 JLINK_IsHalted()
T0E80 000:845.566 - 0.968ms returns FALSE
T0E80 000:852.532 JLINK_IsHalted()
T0E80 000:853.916 - 1.467ms returns FALSE
T0E80 000:855.519 JLINK_IsHalted()
T0E80 000:856.577 - 1.144ms returns FALSE
T0E80 000:858.499 JLINK_IsHalted()
T0E80 000:859.442 - 1.000ms returns FALSE
T0E80 000:861.573 JLINK_IsHalted()
T0E80 000:862.868 - 1.404ms returns FALSE
T0E80 000:864.498 JLINK_IsHalted()
T0E80 000:865.754 - 1.369ms returns FALSE
T0E80 000:867.438 JLINK_IsHalted()
T0E80 000:868.435 - 1.088ms returns FALSE
T0E80 000:889.351 JLINK_IsHalted()
T0E80 000:890.547 - 1.276ms returns FALSE
T0E80 000:892.372 JLINK_IsHalted()
T0E80 000:893.448 - 1.146ms returns FALSE
T0E80 000:895.400 JLINK_IsHalted()
T0E80 000:896.378 - 1.057ms returns FALSE
T0E80 000:926.271 JLINK_IsHalted()
T0E80 000:927.395 - 1.203ms returns FALSE
T0E80 000:953.801 JLINK_IsHalted()
T0E80 000:957.713   CPU_ReadMem(2 bytes @ 0x20000000)
T0E80 000:958.824 - 5.104ms returns TRUE
T0E80 000:958.984 JLINK_ReadReg(R15 (PC))
T0E80 000:959.090 - 0.155ms returns 0x20000000
T0E80 000:959.199 JLINK_ClrBPEx(BPHandle = 0x00000003)
T0E80 000:959.296 - 0.144ms returns 0x00
T0E80 000:959.403 JLINK_ReadReg(R0)
T0E80 000:959.496 - 0.139ms returns 0x00000000
T0E80 000:966.453 JLINK_WriteReg(R0, 0x08004000)
T0E80 000:966.598 - 0.194ms returns 0x00
T0E80 000:966.700 JLINK_WriteReg(R1, 0x00004000)
T0E80 000:966.821 - 0.166ms returns 0x00
T0E80 000:966.920 JLINK_WriteReg(R2, 0x000000FF)
T0E80 000:967.012 - 0.136ms returns 0x00
T0E80 000:967.109 JLINK_WriteReg(R3, 0x00000000)
T0E80 000:967.200 - 0.136ms returns 0x00
T0E80 000:967.296 JLINK_WriteReg(R4, 0x00000000)
T0E80 000:967.387 - 0.135ms returns 0x00
T0E80 000:967.484 JLINK_WriteReg(R5, 0x00000000)
T0E80 000:967.574 - 0.135ms returns 0x00
T0E80 000:967.671 JLINK_WriteReg(R6, 0x00000000)
T0E80 000:967.818 - 0.199ms returns 0x00
T0E80 000:967.926 JLINK_WriteReg(R7, 0x00000000)
T0E80 000:968.018 - 0.137ms returns 0x00
T0E80 000:968.114 JLINK_WriteReg(R8, 0x00000000)
T0E80 000:968.206 - 0.136ms returns 0x00
T0E80 000:968.302 JLINK_WriteReg(R9, 0x20000194)
T0E80 000:968.393 - 0.135ms returns 0x00
T0E80 000:968.489 JLINK_WriteReg(R10, 0x00000000)
T0E80 000:968.580 - 0.135ms returns 0x00
T0E80 000:968.676 JLINK_WriteReg(R11, 0x00000000)
T0E80 000:968.788 - 0.162ms returns 0x00
T0E80 000:968.902 JLINK_WriteReg(R12, 0x00000000)
T0E80 000:968.995 - 0.137ms returns 0x00
T0E80 000:969.092 JLINK_WriteReg(R13 (SP), 0x20001000)
T0E80 000:969.186 - 0.139ms returns 0x00
T0E80 000:969.282 JLINK_WriteReg(R14, 0x20000001)
T0E80 000:969.384 - 0.152ms returns 0x00
T0E80 000:969.488 JLINK_WriteReg(R15 (PC), 0x20000020)
T0E80 000:969.580 - 0.137ms returns 0x00
T0E80 000:969.677 JLINK_WriteReg(XPSR, 0x01000000)
T0E80 000:969.799 - 0.204ms returns 0x00
T0E80 000:969.948 JLINK_WriteReg(MSP, 0x20001000)
T0E80 000:970.044 - 0.142ms returns 0x00
T0E80 000:970.141 JLINK_WriteReg(PSP, 0x20001000)
T0E80 000:970.233 - 0.136ms returns 0x00
T0E80 000:970.330 JLINK_WriteReg(CFBP, 0x00000000)
T0E80 000:970.421 - 0.136ms returns 0x00
T0E80 000:970.522   JLINK_SetBPEx(Addr = 0x20000000, Type = 0xFFFFFFF2)
T0E80 000:970.661 - 0.196ms returns 0x00000004
T0E80 000:970.770 JLINK_Go()
T0E80 000:970.893   CPU_ReadMem(4 bytes @ 0xE0001000)
T0E80 000:975.237 - 4.550ms
T0E80 000:975.387 JLINK_IsHalted()
T0E80 000:978.941   CPU_ReadMem(2 bytes @ 0x20000000)
T0E80 000:980.093 - 4.784ms returns TRUE
T0E80 000:980.240 JLINK_ReadReg(R15 (PC))
T0E80 000:980.348 - 0.155ms returns 0x20000000
T0E80 000:980.452 JLINK_ClrBPEx(BPHandle = 0x00000004)
T0E80 000:980.548 - 0.144ms returns 0x00
T0E80 000:980.651 JLINK_ReadReg(R0)
T0E80 000:980.753 - 0.148ms returns 0x00000001
T0E80 000:980.864 JLINK_WriteReg(R0, 0x08004000)
T0E80 000:980.963 - 0.145ms returns 0x00
T0E80 000:981.064 JLINK_WriteReg(R1, 0x00004000)
T0E80 000:981.159 - 0.141ms returns 0x00
T0E80 000:981.258 JLINK_WriteReg(R2, 0x000000FF)
T0E80 000:981.353 - 0.140ms returns 0x00
T0E80 000:981.451 JLINK_WriteReg(R3, 0x00000000)
T0E80 000:981.544 - 0.138ms returns 0x00
T0E80 000:981.642 JLINK_WriteReg(R4, 0x00000000)
T0E80 000:981.741 - 0.144ms returns 0x00
T0E80 000:981.839 JLINK_WriteReg(R5, 0x00000000)
T0E80 000:981.931 - 0.138ms returns 0x00
T0E80 000:982.030 JLINK_WriteReg(R6, 0x00000000)
T0E80 000:982.123 - 0.138ms returns 0x00
T0E80 000:982.222 JLINK_WriteReg(R7, 0x00000000)
T0E80 000:982.316 - 0.140ms returns 0x00
T0E80 000:982.415 JLINK_WriteReg(R8, 0x00000000)
T0E80 000:982.510 - 0.140ms returns 0x00
T0E80 000:982.608 JLINK_WriteReg(R9, 0x20000194)
T0E80 000:982.705 - 0.144ms returns 0x00
T0E80 000:982.805 JLINK_WriteReg(R10, 0x00000000)
T0E80 000:982.896 - 0.138ms returns 0x00
T0E80 000:982.996 JLINK_WriteReg(R11, 0x00000000)
T0E80 000:983.089 - 0.140ms returns 0x00
T0E80 000:983.189 JLINK_WriteReg(R12, 0x00000000)
T0E80 000:983.282 - 0.140ms returns 0x00
T0E80 000:983.382 JLINK_WriteReg(R13 (SP), 0x20001000)
T0E80 000:983.476 - 0.141ms returns 0x00
T0E80 000:983.575 JLINK_WriteReg(R14, 0x20000001)
T0E80 000:983.676 - 0.148ms returns 0x00
T0E80 000:983.777 JLINK_WriteReg(R15 (PC), 0x200000D4)
T0E80 000:983.870 - 0.138ms returns 0x00
T0E80 000:983.969 JLINK_WriteReg(XPSR, 0x01000000)
T0E80 000:984.066 - 0.142ms returns 0x00
T0E80 000:984.165 JLINK_WriteReg(MSP, 0x20001000)
T0E80 000:984.260 - 0.141ms returns 0x00
T0E80 000:984.361 JLINK_WriteReg(PSP, 0x20001000)
T0E80 000:984.455 - 0.141ms returns 0x00
T0E80 000:984.555 JLINK_WriteReg(CFBP, 0x00000000)
T0E80 000:984.648 - 0.146ms returns 0x00
T0E80 000:984.801   JLINK_SetBPEx(Addr = 0x20000000, Type = 0xFFFFFFF2)
T0E80 000:984.954 - 0.202ms returns 0x00000005
T0E80 000:985.059 JLINK_Go()
T0E80 000:985.177   CPU_ReadMem(4 bytes @ 0xE0001000)
T0E80 000:989.369 - 4.412ms
T0E80 000:989.574 JLINK_IsHalted()
T0E80 000:990.564 - 1.067ms returns FALSE
T0E80 001:073.793 JLINK_IsHalted()
T0E80 001:074.866 - 1.163ms returns FALSE
T0E80 001:076.822 JLINK_IsHalted()
T0E80 001:077.787 - 1.039ms returns FALSE
T0E80 001:079.839 JLINK_IsHalted()
T0E80 001:080.915 - 1.155ms returns FALSE
T0E80 001:082.776 JLINK_IsHalted()
T0E80 001:083.871 - 1.172ms returns FALSE
T0E80 001:107.775 JLINK_IsHalted()
T0E80 001:109.025 - 1.332ms returns FALSE
T0E80 001:110.768 JLINK_IsHalted()
T0E80 001:111.863 - 1.166ms returns FALSE
T0E80 001:113.912 JLINK_IsHalted()
T0E80 001:115.107 - 1.280ms returns FALSE
T0E80 001:170.919 JLINK_IsHalted()
T0E80 001:171.795 - 0.906ms returns FALSE
T0E80 001:173.838 JLINK_IsHalted()
T0E80 001:174.799 - 0.997ms returns FALSE
T0E80 001:176.814 JLINK_IsHalted()
T0E80 001:177.757 - 0.980ms returns FALSE
T0E80 001:179.802 JLINK_IsHalted()
T0E80 001:180.713 - 0.949ms returns FALSE
T0E80 001:186.748 JLINK_IsHalted()
T0E80 001:187.570 - 0.847ms returns FALSE
T0E80 001:188.784 JLINK_IsHalted()
T0E80 001:189.576 - 0.819ms returns FALSE
T0E80 001:196.741 JLINK_IsHalted()
T0E80 001:197.604 - 0.902ms returns FALSE
T0E80 001:199.770 JLINK_IsHalted()
T0E80 001:200.747 - 1.013ms returns FALSE
T0E80 001:202.755 JLINK_IsHalted()
T0E80 001:203.729 - 1.015ms returns FALSE
T0E80 001:205.696 JLINK_IsHalted()
T0E80 001:206.708 - 1.057ms returns FALSE
T0E80 001:208.713 JLINK_IsHalted()
T0E80 001:209.588 - 0.917ms returns FALSE
T0E80 001:216.741 JLINK_IsHalted()
T0E80 001:217.666 - 0.953ms returns FALSE
T0E80 001:219.664 JLINK_IsHalted()
T0E80 001:220.770 - 1.171ms returns FALSE
T0E80 001:233.691 JLINK_IsHalted()
T0E80 001:234.901 - 1.310ms returns FALSE
T0E80 001:268.637 JLINK_IsHalted()
T0E80 001:269.793 - 1.231ms returns FALSE
T0E80 001:271.876 JLINK_IsHalted()
T0E80 001:273.135 - 1.352ms returns FALSE
T0E80 001:300.565 JLINK_IsHalted()
T0E80 001:301.777 - 1.290ms returns FALSE
T0E80 001:303.496 JLINK_IsHalted()
T0E80 001:304.506 - 1.088ms returns FALSE
T0E80 001:329.431 JLINK_IsHalted()
T0E80 001:330.480 - 1.146ms returns FALSE
T0E80 001:332.415 JLINK_IsHalted()
T0E80 001:333.431 - 1.097ms returns FALSE
T0E80 001:365.945 JLINK_IsHalted()
T0E80 001:369.705   CPU_ReadMem(2 bytes @ 0x20000000)
T0E80 001:370.862 - 4.990ms returns TRUE
T0E80 001:371.002 JLINK_ReadReg(R15 (PC))
T0E80 001:371.106 - 0.151ms returns 0x20000000
T0E80 001:371.207 JLINK_ClrBPEx(BPHandle = 0x00000005)
T0E80 001:371.302 - 0.140ms returns 0x00
T0E80 001:371.402 JLINK_ReadReg(R0)
T0E80 001:371.494 - 0.139ms returns 0x00000000
T0E80 001:373.084 JLINK_WriteReg(R0, 0x00000001)
T0E80 001:373.217 - 0.180ms returns 0x00
T0E80 001:373.317 JLINK_WriteReg(R1, 0x00004000)
T0E80 001:373.411 - 0.138ms returns 0x00
T0E80 001:373.508 JLINK_WriteReg(R2, 0x000000FF)
T0E80 001:373.599 - 0.135ms returns 0x00
T0E80 001:373.695 JLINK_WriteReg(R3, 0x00000000)
T0E80 001:373.786 - 0.136ms returns 0x00
T0E80 001:373.890 JLINK_WriteReg(R4, 0x00000000)
T0E80 001:373.981 - 0.136ms returns 0x00
T0E80 001:374.078 JLINK_WriteReg(R5, 0x00000000)
T0E80 001:374.168 - 0.135ms returns 0x00
T0E80 001:374.265 JLINK_WriteReg(R6, 0x00000000)
T0E80 001:374.356 - 0.135ms returns 0x00
T0E80 001:374.452 JLINK_WriteReg(R7, 0x00000000)
T0E80 001:374.543 - 0.135ms returns 0x00
T0E80 001:374.640 JLINK_WriteReg(R8, 0x00000000)
T0E80 001:374.730 - 0.135ms returns 0x00
T0E80 001:374.830 JLINK_WriteReg(R9, 0x20000194)
T0E80 001:374.921 - 0.135ms returns 0x00
T0E80 001:375.017 JLINK_WriteReg(R10, 0x00000000)
T0E80 001:375.107 - 0.135ms returns 0x00
T0E80 001:375.204 JLINK_WriteReg(R11, 0x00000000)
T0E80 001:375.295 - 0.135ms returns 0x00
T0E80 001:375.391 JLINK_WriteReg(R12, 0x00000000)
T0E80 001:375.482 - 0.135ms returns 0x00
T0E80 001:375.578 JLINK_WriteReg(R13 (SP), 0x20001000)
T0E80 001:375.671 - 0.137ms returns 0x00
T0E80 001:375.767 JLINK_WriteReg(R14, 0x20000001)
T0E80 001:375.861 - 0.138ms returns 0x00
T0E80 001:375.957 JLINK_WriteReg(R15 (PC), 0x2000008C)
T0E80 001:376.049 - 0.136ms returns 0x00
T0E80 001:376.145 JLINK_WriteReg(XPSR, 0x01000000)
T0E80 001:376.236 - 0.136ms returns 0x00
T0E80 001:376.333 JLINK_WriteReg(MSP, 0x20001000)
T0E80 001:376.424 - 0.135ms returns 0x00
T0E80 001:376.520 JLINK_WriteReg(PSP, 0x20001000)
T0E80 001:376.611 - 0.135ms returns 0x00
T0E80 001:376.708 JLINK_WriteReg(CFBP, 0x00000000)
T0E80 001:376.801 - 0.138ms returns 0x00
T0E80 001:376.902   JLINK_SetBPEx(Addr = 0x20000000, Type = 0xFFFFFFF2)
T0E80 001:377.040 - 0.185ms returns 0x00000006
T0E80 001:377.138 JLINK_Go()
T0E80 001:377.255   CPU_ReadMem(4 bytes @ 0xE0001000)
T0E80 001:381.785 - 4.732ms
T0E80 001:381.948 JLINK_IsHalted()
T0E80 001:385.528   CPU_ReadMem(2 bytes @ 0x20000000)
T0E80 001:386.683 - 4.807ms returns TRUE
T0E80 001:386.836 JLINK_ReadReg(R15 (PC))
T0E80 001:386.943 - 0.154ms returns 0x20000000
T0E80 001:387.208 JLINK_ClrBPEx(BPHandle = 0x00000006)
T0E80 001:387.318 - 0.157ms returns 0x00
T0E80 001:387.425 JLINK_ReadReg(R0)
T0E80 001:387.519 - 0.140ms returns 0x00000000
T0E80 001:473.894 JLINK_WriteMem(0x20000000, 0x0198 Bytes, ...)
T0E80 001:474.051   Data:  00 BE 0A E0 0D 78 2D 06 68 40 08 24 40 00 00 D3 ...
T0E80 001:474.223   CPU_WriteMem(408 bytes @ 0x20000000)
T0E80 001:477.835 - 4.039ms returns 0x198
T0E80 001:478.108 JLINK_WriteReg(R0, 0x08000000)
T0E80 001:478.221 - 0.161ms returns 0x00
T0E80 001:478.323 JLINK_WriteReg(R1, 0x0ABA9500)
T0E80 001:478.419 - 0.142ms returns 0x00
T0E80 001:478.561 JLINK_WriteReg(R2, 0x00000002)
T0E80 001:478.693 - 0.180ms returns 0x00
T0E80 001:478.797 JLINK_WriteReg(R3, 0x00000000)
T0E80 001:478.890 - 0.138ms returns 0x00
T0E80 001:478.987 JLINK_WriteReg(R4, 0x00000000)
T0E80 001:479.078 - 0.136ms returns 0x00
T0E80 001:479.175 JLINK_WriteReg(R5, 0x00000000)
T0E80 001:479.266 - 0.136ms returns 0x00
T0E80 001:479.363 JLINK_WriteReg(R6, 0x00000000)
T0E80 001:479.454 - 0.136ms returns 0x00
T0E80 001:479.607 JLINK_WriteReg(R7, 0x00000000)
T0E80 001:479.712 - 0.152ms returns 0x00
T0E80 001:479.811 JLINK_WriteReg(R8, 0x00000000)
T0E80 001:479.903 - 0.138ms returns 0x00
T0E80 001:480.001 JLINK_WriteReg(R9, 0x20000194)
T0E80 001:480.093 - 0.137ms returns 0x00
T0E80 001:480.190 JLINK_WriteReg(R10, 0x00000000)
T0E80 001:480.282 - 0.137ms returns 0x00
T0E80 001:480.380 JLINK_WriteReg(R11, 0x00000000)
T0E80 001:480.472 - 0.153ms returns 0x00
T0E80 001:480.587 JLINK_WriteReg(R12, 0x00000000)
T0E80 001:480.680 - 0.138ms returns 0x00
T0E80 001:480.778 JLINK_WriteReg(R13 (SP), 0x20001000)
T0E80 001:480.872 - 0.139ms returns 0x00
T0E80 001:480.969 JLINK_WriteReg(R14, 0x20000001)
T0E80 001:481.061 - 0.137ms returns 0x00
T0E80 001:481.158 JLINK_WriteReg(R15 (PC), 0x2000005E)
T0E80 001:481.250 - 0.137ms returns 0x00
T0E80 001:481.348 JLINK_WriteReg(XPSR, 0x01000000)
T0E80 001:481.439 - 0.137ms returns 0x00
T0E80 001:481.544 JLINK_WriteReg(MSP, 0x20001000)
T0E80 001:481.636 - 0.138ms returns 0x00
T0E80 001:481.734 JLINK_WriteReg(PSP, 0x20001000)
T0E80 001:481.826 - 0.137ms returns 0x00
T0E80 001:481.924 JLINK_WriteReg(CFBP, 0x00000000)
T0E80 001:482.015 - 0.137ms returns 0x00
T0E80 001:482.116   JLINK_SetBPEx(Addr = 0x20000000, Type = 0xFFFFFFF2)
T0E80 001:482.268   CPU_ReadMem(2 bytes @ 0x20000000)
T0E80 001:483.368 - 1.329ms returns 0x00000007
T0E80 001:483.520 JLINK_Go()
T0E80 001:483.629   CPU_WriteMem(2 bytes @ 0x20000000)
T0E80 001:484.625   CPU_ReadMem(4 bytes @ 0xE0001000)
T0E80 001:488.891 - 5.480ms
T0E80 001:489.090 JLINK_IsHalted()
T0E80 001:492.521   CPU_ReadMem(2 bytes @ 0x20000000)
T0E80 001:493.603 - 4.608ms returns TRUE
T0E80 001:493.807 JLINK_ReadReg(R15 (PC))
T0E80 001:493.974 - 0.229ms returns 0x20000000
T0E80 001:494.102 JLINK_ClrBPEx(BPHandle = 0x00000007)
T0E80 001:494.202 - 0.146ms returns 0x00
T0E80 001:494.307 JLINK_ReadReg(R0)
T0E80 001:494.402 - 0.140ms returns 0x00000000
T0E80 001:495.942 JLINK_WriteMem(0x20000198, 0x0268 Bytes, ...)
T0E80 001:496.074   Data:  40 4D 00 20 C1 01 00 08 C3 25 00 08 DF 22 00 08 ...
T0E80 001:496.241   CPU_WriteMem(616 bytes @ 0x20000198)
T0E80 001:500.958 - 5.094ms returns 0x268
T0E80 001:501.102 JLINK_WriteMem(0x20000400, 0x0198 Bytes, ...)
T0E80 001:501.199   Data:  9B 07 03 D0 09 E0 08 C9 12 1F 08 C0 04 2A FA D2 ...
T0E80 001:501.360   CPU_WriteMem(408 bytes @ 0x20000400)
T0E80 001:505.024 - 3.998ms returns 0x198
T0E80 001:505.180 JLINK_WriteReg(R0, 0x08000000)
T0E80 001:505.310 - 0.201ms returns 0x00
T0E80 001:505.557 JLINK_WriteReg(R1, 0x00000400)
T0E80 001:505.806 - 0.316ms returns 0x00
T0E80 001:505.945 JLINK_WriteReg(R2, 0x20000198)
T0E80 001:506.070 - 0.211ms returns 0x00
T0E80 001:506.259 JLINK_WriteReg(R3, 0x00000000)
T0E80 001:506.391 - 0.184ms returns 0x00
T0E80 001:506.550 JLINK_WriteReg(R4, 0x00000000)
T0E80 001:506.700 - 0.212ms returns 0x00
T0E80 001:506.825 JLINK_WriteReg(R5, 0x00000000)
T0E80 001:507.002 - 0.250ms returns 0x00
T0E80 001:507.171 JLINK_WriteReg(R6, 0x00000000)
T0E80 001:507.322 - 0.219ms returns 0x00
T0E80 001:507.531 JLINK_WriteReg(R7, 0x00000000)
T0E80 001:507.695 - 0.236ms returns 0x00
T0E80 001:507.846 JLINK_WriteReg(R8, 0x00000000)
T0E80 001:507.989 - 0.210ms returns 0x00
T0E80 001:508.136 JLINK_WriteReg(R9, 0x20000194)
T0E80 001:508.275 - 0.203ms returns 0x00
T0E80 001:508.419 JLINK_WriteReg(R10, 0x00000000)
T0E80 001:508.568 - 0.218ms returns 0x00
T0E80 001:508.718 JLINK_WriteReg(R11, 0x00000000)
T0E80 001:508.853 - 0.201ms returns 0x00
T0E80 001:508.991 JLINK_WriteReg(R12, 0x00000000)
T0E80 001:509.119 - 0.195ms returns 0x00
T0E80 001:509.261 JLINK_WriteReg(R13 (SP), 0x20001000)
T0E80 001:509.398 - 0.209ms returns 0x00
T0E80 001:509.546 JLINK_WriteReg(R14, 0x20000001)
T0E80 001:509.683 - 0.206ms returns 0x00
T0E80 001:509.830 JLINK_WriteReg(R15 (PC), 0x20000120)
T0E80 001:509.971 - 0.209ms returns 0x00
T0E80 001:510.117 JLINK_WriteReg(XPSR, 0x01000000)
T0E80 001:510.256 - 0.207ms returns 0x00
T0E80 001:510.403 JLINK_WriteReg(MSP, 0x20001000)
T0E80 001:510.549 - 0.213ms returns 0x00
T0E80 001:510.697 JLINK_WriteReg(PSP, 0x20001000)
T0E80 001:510.834 - 0.206ms returns 0x00
T0E80 001:510.981 JLINK_WriteReg(CFBP, 0x00000000)
T0E80 001:511.123 - 0.209ms returns 0x00
T0E80 001:511.275   JLINK_SetBPEx(Addr = 0x20000000, Type = 0xFFFFFFF2)
T0E80 001:511.488 - 0.285ms returns 0x00000008
T0E80 001:511.636 JLINK_Go()
T0E80 001:511.820   CPU_ReadMem(4 bytes @ 0xE0001000)
T0E80 001:516.249 - 4.689ms
T0E80 001:516.390 JLINK_IsHalted()
T0E80 001:517.402 - 1.090ms returns FALSE
T0E80 001:546.517 JLINK_IsHalted()
T0E80 001:550.255   CPU_ReadMem(2 bytes @ 0x20000000)
T0E80 001:551.426 - 4.976ms returns TRUE
T0E80 001:551.539 JLINK_ReadReg(R15 (PC))
T0E80 001:551.609 - 0.099ms returns 0x20000000
T0E80 001:551.673 JLINK_ClrBPEx(BPHandle = 0x00000008)
T0E80 001:551.735 - 0.090ms returns 0x00
T0E80 001:551.799 JLINK_ReadReg(R0)
T0E80 001:551.859 - 0.089ms returns 0x00000000
T0E80 001:555.423 JLINK_WriteMem(0x20000198, 0x0268 Bytes, ...)
T0E80 001:555.522   Data:  06 46 84 46 0E E0 17 1B 73 EB 05 07 05 D3 12 1B ...
T0E80 001:555.598   CPU_WriteMem(616 bytes @ 0x20000198)
T0E80 001:560.427 - 5.049ms returns 0x268
T0E80 001:560.500 JLINK_WriteMem(0x20000400, 0x0198 Bytes, ...)
T0E80 001:560.536   Data:  FF F7 A4 FD 9C 56 00 08 BC 56 00 08 70 B5 8C 18 ...
T0E80 001:560.602   CPU_WriteMem(408 bytes @ 0x20000400)
T0E80 001:564.242 - 3.812ms returns 0x198
T0E80 001:564.397 JLINK_WriteReg(R0, 0x08000400)
T0E80 001:564.480 - 0.114ms returns 0x00
T0E80 001:564.545 JLINK_WriteReg(R1, 0x00000400)
T0E80 001:564.605 - 0.089ms returns 0x00
T0E80 001:564.667 JLINK_WriteReg(R2, 0x20000198)
T0E80 001:564.726 - 0.087ms returns 0x00
T0E80 001:564.788 JLINK_WriteReg(R3, 0x00000000)
T0E80 001:564.849 - 0.089ms returns 0x00
T0E80 001:564.910 JLINK_WriteReg(R4, 0x00000000)
T0E80 001:564.969 - 0.087ms returns 0x00
T0E80 001:565.031 JLINK_WriteReg(R5, 0x00000000)
T0E80 001:565.089 - 0.087ms returns 0x00
T0E80 001:565.151 JLINK_WriteReg(R6, 0x00000000)
T0E80 001:565.209 - 0.087ms returns 0x00
T0E80 001:565.271 JLINK_WriteReg(R7, 0x00000000)
T0E80 001:565.335 - 0.081ms returns 0x00
T0E80 001:565.371 JLINK_WriteReg(R8, 0x00000000)
T0E80 001:565.405 - 0.050ms returns 0x00
T0E80 001:565.441 JLINK_WriteReg(R9, 0x20000194)
T0E80 001:565.477 - 0.052ms returns 0x00
T0E80 001:565.513 JLINK_WriteReg(R10, 0x00000000)
T0E80 001:565.548 - 0.053ms returns 0x00
T0E80 001:565.587 JLINK_WriteReg(R11, 0x00000000)
T0E80 001:565.622 - 0.052ms returns 0x00
T0E80 001:565.659 JLINK_WriteReg(R12, 0x00000000)
T0E80 001:565.694 - 0.052ms returns 0x00
T0E80 001:565.733 JLINK_WriteReg(R13 (SP), 0x20001000)
T0E80 001:565.770 - 0.054ms returns 0x00
T0E80 001:565.808 JLINK_WriteReg(R14, 0x20000001)
T0E80 001:565.843 - 0.052ms returns 0x00
T0E80 001:565.880 JLINK_WriteReg(R15 (PC), 0x20000120)
T0E80 001:565.915 - 0.051ms returns 0x00
T0E80 001:565.955 JLINK_WriteReg(XPSR, 0x01000000)
T0E80 001:565.990 - 0.055ms returns 0x00
T0E80 001:566.033 JLINK_WriteReg(MSP, 0x20001000)
T0E80 001:566.067 - 0.051ms returns 0x00
T0E80 001:566.104 JLINK_WriteReg(PSP, 0x20001000)
T0E80 001:566.138 - 0.051ms returns 0x00
T0E80 001:566.175 JLINK_WriteReg(CFBP, 0x00000000)
T0E80 001:566.209 - 0.051ms returns 0x00
T0E80 001:566.247   JLINK_SetBPEx(Addr = 0x20000000, Type = 0xFFFFFFF2)
T0E80 001:566.310 - 0.089ms returns 0x00000009
T0E80 001:566.357 JLINK_Go()
T0E80 001:566.410   CPU_ReadMem(4 bytes @ 0xE0001000)
T0E80 001:570.478 - 4.152ms
T0E80 001:570.533 JLINK_IsHalted()
T0E80 001:571.382 - 0.893ms returns FALSE
T0E80 001:577.297 JLINK_IsHalted()
T0E80 001:580.749   CPU_ReadMem(2 bytes @ 0x20000000)
T0E80 001:582.005 - 4.764ms returns TRUE
T0E80 001:582.097 JLINK_ReadReg(R15 (PC))
T0E80 001:582.151 - 0.078ms returns 0x20000000
T0E80 001:582.202 JLINK_ClrBPEx(BPHandle = 0x00000009)
T0E80 001:582.263 - 0.084ms returns 0x00
T0E80 001:582.314 JLINK_ReadReg(R0)
T0E80 001:582.360 - 0.068ms returns 0x00000000
T0E80 001:583.324 JLINK_WriteMem(0x20000198, 0x0268 Bytes, ...)
T0E80 001:583.387   Data:  00 F1 24 01 01 20 4F F4 00 02 32 E0 00 F1 24 01 ...
T0E80 001:583.522   CPU_WriteMem(616 bytes @ 0x20000198)
T0E80 001:588.186 - 4.929ms returns 0x268
T0E80 001:588.279 JLINK_WriteMem(0x20000400, 0x0198 Bytes, ...)
T0E80 001:588.317   Data:  D0 F8 0C B0 D0 F8 10 A0 D0 F8 18 80 F1 07 01 D1 ...
T0E80 001:588.377   CPU_WriteMem(408 bytes @ 0x20000400)
T0E80 001:591.928 - 3.717ms returns 0x198
T0E80 001:592.051 JLINK_WriteReg(R0, 0x08000800)
T0E80 001:592.122 - 0.102ms returns 0x00
T0E80 001:592.187 JLINK_WriteReg(R1, 0x00000400)
T0E80 001:592.248 - 0.097ms returns 0x00
T0E80 001:592.319 JLINK_WriteReg(R2, 0x20000198)
T0E80 001:592.379 - 0.089ms returns 0x00
T0E80 001:592.442 JLINK_WriteReg(R3, 0x00000000)
T0E80 001:592.502 - 0.088ms returns 0x00
T0E80 001:592.564 JLINK_WriteReg(R4, 0x00000000)
T0E80 001:592.624 - 0.088ms returns 0x00
T0E80 001:592.686 JLINK_WriteReg(R5, 0x00000000)
T0E80 001:592.746 - 0.088ms returns 0x00
T0E80 001:592.808 JLINK_WriteReg(R6, 0x00000000)
T0E80 001:592.868 - 0.089ms returns 0x00
T0E80 001:592.931 JLINK_WriteReg(R7, 0x00000000)
T0E80 001:592.991 - 0.088ms returns 0x00
T0E80 001:593.054 JLINK_WriteReg(R8, 0x00000000)
T0E80 001:593.113 - 0.088ms returns 0x00
T0E80 001:593.175 JLINK_WriteReg(R9, 0x20000194)
T0E80 001:593.273 - 0.129ms returns 0x00
T0E80 001:593.338 JLINK_WriteReg(R10, 0x00000000)
T0E80 001:593.398 - 0.088ms returns 0x00
T0E80 001:593.461 JLINK_WriteReg(R11, 0x00000000)
T0E80 001:593.520 - 0.088ms returns 0x00
T0E80 001:593.583 JLINK_WriteReg(R12, 0x00000000)
T0E80 001:593.642 - 0.088ms returns 0x00
T0E80 001:593.705 JLINK_WriteReg(R13 (SP), 0x20001000)
T0E80 001:593.765 - 0.090ms returns 0x00
T0E80 001:593.828 JLINK_WriteReg(R14, 0x20000001)
T0E80 001:593.888 - 0.088ms returns 0x00
T0E80 001:593.951 JLINK_WriteReg(R15 (PC), 0x20000120)
T0E80 001:594.011 - 0.089ms returns 0x00
T0E80 001:594.073 JLINK_WriteReg(XPSR, 0x01000000)
T0E80 001:594.132 - 0.089ms returns 0x00
T0E80 001:594.195 JLINK_WriteReg(MSP, 0x20001000)
T0E80 001:594.256 - 0.089ms returns 0x00
T0E80 001:594.324 JLINK_WriteReg(PSP, 0x20001000)
T0E80 001:594.392 - 0.097ms returns 0x00
T0E80 001:594.455 JLINK_WriteReg(CFBP, 0x00000000)
T0E80 001:594.513 - 0.087ms returns 0x00
T0E80 001:594.577   JLINK_SetBPEx(Addr = 0x20000000, Type = 0xFFFFFFF2)
T0E80 001:594.665 - 0.118ms returns 0x0000000A
T0E80 001:594.727 JLINK_Go()
T0E80 001:594.803   CPU_ReadMem(4 bytes @ 0xE0001000)
T0E80 001:599.149 - 4.481ms
T0E80 001:599.260 JLINK_IsHalted()
T0E80 001:600.138 - 0.926ms returns FALSE
T0E80 001:608.275 JLINK_IsHalted()
T0E80 001:612.116   CPU_ReadMem(2 bytes @ 0x20000000)
T0E80 001:613.387 - 5.177ms returns TRUE
T0E80 001:613.497 JLINK_ReadReg(R15 (PC))
T0E80 001:613.566 - 0.099ms returns 0x20000000
T0E80 001:613.631 JLINK_ClrBPEx(BPHandle = 0x0000000A)
T0E80 001:613.692 - 0.091ms returns 0x00
T0E80 001:613.756 JLINK_ReadReg(R0)
T0E80 001:613.816 - 0.089ms returns 0x00000000
T0E80 001:614.987 JLINK_WriteMem(0x20000198, 0x0268 Bytes, ...)
T0E80 001:615.066   Data:  12 15 45 F0 08 05 10 E0 4F F4 80 55 49 E7 45 F0 ...
T0E80 001:615.173   CPU_WriteMem(616 bytes @ 0x20000198)
T0E80 001:619.856 - 4.924ms returns 0x268
T0E80 001:619.953 JLINK_WriteMem(0x20000400, 0x0198 Bytes, ...)
T0E80 001:619.989   Data:  5E 65 BD F8 06 00 3F 49 0C E0 03 99 A1 F2 01 20 ...
T0E80 001:620.049   CPU_WriteMem(408 bytes @ 0x20000400)
T0E80 001:623.477 - 3.580ms returns 0x198
T0E80 001:623.586 JLINK_WriteReg(R0, 0x08000C00)
T0E80 001:623.656 - 0.100ms returns 0x00
T0E80 001:623.720 JLINK_WriteReg(R1, 0x00000400)
T0E80 001:623.781 - 0.090ms returns 0x00
T0E80 001:623.844 JLINK_WriteReg(R2, 0x20000198)
T0E80 001:623.904 - 0.089ms returns 0x00
T0E80 001:623.967 JLINK_WriteReg(R3, 0x00000000)
T0E80 001:624.027 - 0.089ms returns 0x00
T0E80 001:624.090 JLINK_WriteReg(R4, 0x00000000)
T0E80 001:624.154 - 0.093ms returns 0x00
T0E80 001:624.217 JLINK_WriteReg(R5, 0x00000000)
T0E80 001:624.276 - 0.088ms returns 0x00
T0E80 001:624.340 JLINK_WriteReg(R6, 0x00000000)
T0E80 001:624.399 - 0.089ms returns 0x00
T0E80 001:624.462 JLINK_WriteReg(R7, 0x00000000)
T0E80 001:624.521 - 0.088ms returns 0x00
T0E80 001:624.584 JLINK_WriteReg(R8, 0x00000000)
T0E80 001:624.644 - 0.088ms returns 0x00
T0E80 001:624.707 JLINK_WriteReg(R9, 0x20000194)
T0E80 001:624.766 - 0.088ms returns 0x00
T0E80 001:624.829 JLINK_WriteReg(R10, 0x00000000)
T0E80 001:624.888 - 0.089ms returns 0x00
T0E80 001:624.952 JLINK_WriteReg(R11, 0x00000000)
T0E80 001:625.011 - 0.089ms returns 0x00
T0E80 001:625.074 JLINK_WriteReg(R12, 0x00000000)
T0E80 001:625.135 - 0.091ms returns 0x00
T0E80 001:625.199 JLINK_WriteReg(R13 (SP), 0x20001000)
T0E80 001:625.261 - 0.091ms returns 0x00
T0E80 001:625.324 JLINK_WriteReg(R14, 0x20000001)
T0E80 001:625.383 - 0.089ms returns 0x00
T0E80 001:625.446 JLINK_WriteReg(R15 (PC), 0x20000120)
T0E80 001:625.506 - 0.089ms returns 0x00
T0E80 001:625.569 JLINK_WriteReg(XPSR, 0x01000000)
T0E80 001:625.629 - 0.088ms returns 0x00
T0E80 001:625.692 JLINK_WriteReg(MSP, 0x20001000)
T0E80 001:625.751 - 0.116ms returns 0x00
T0E80 001:625.843 JLINK_WriteReg(PSP, 0x20001000)
T0E80 001:625.903 - 0.099ms returns 0x00
T0E80 001:625.962 JLINK_WriteReg(CFBP, 0x00000000)
T0E80 001:625.997 - 0.051ms returns 0x00
T0E80 001:626.035   JLINK_SetBPEx(Addr = 0x20000000, Type = 0xFFFFFFF2)
T0E80 001:626.087 - 0.070ms returns 0x0000000B
T0E80 001:626.125 JLINK_Go()
T0E80 001:626.172   CPU_ReadMem(4 bytes @ 0xE0001000)
T0E80 001:629.899 - 3.812ms
T0E80 001:629.967 JLINK_IsHalted()
T0E80 001:630.738 - 0.795ms returns FALSE
T0E80 001:637.147 JLINK_IsHalted()
T0E80 001:640.489   CPU_ReadMem(2 bytes @ 0x20000000)
T0E80 001:641.402 - 4.283ms returns TRUE
T0E80 001:641.460 JLINK_ReadReg(R15 (PC))
T0E80 001:641.504 - 0.064ms returns 0x20000000
T0E80 001:641.548 JLINK_ClrBPEx(BPHandle = 0x0000000B)
T0E80 001:641.588 - 0.060ms returns 0x00
T0E80 001:641.631 JLINK_ReadReg(R0)
T0E80 001:641.671 - 0.059ms returns 0x00000000
T0E80 001:642.922 JLINK_WriteMem(0x20000198, 0x0268 Bytes, ...)
T0E80 001:642.968   Data:  1E D1 20 68 21 6C 02 68 22 F0 16 02 02 60 42 69 ...
T0E80 001:643.031   CPU_WriteMem(616 bytes @ 0x20000198)
T0E80 001:647.655 - 4.790ms returns 0x268
T0E80 001:647.739 JLINK_WriteMem(0x20000400, 0x0198 Bytes, ...)
T0E80 001:647.775   Data:  18 43 63 6A 40 EA 0C 00 10 43 04 2B 40 EA 08 02 ...
T0E80 001:647.843   CPU_WriteMem(408 bytes @ 0x20000400)
T0E80 001:651.416 - 3.752ms returns 0x198
T0E80 001:651.525 JLINK_WriteReg(R0, 0x08001000)
T0E80 001:651.567 - 0.060ms returns 0x00
T0E80 001:651.604 JLINK_WriteReg(R1, 0x00000400)
T0E80 001:651.639 - 0.051ms returns 0x00
T0E80 001:651.675 JLINK_WriteReg(R2, 0x20000198)
T0E80 001:651.709 - 0.050ms returns 0x00
T0E80 001:651.745 JLINK_WriteReg(R3, 0x00000000)
T0E80 001:651.779 - 0.050ms returns 0x00
T0E80 001:651.818 JLINK_WriteReg(R4, 0x00000000)
T0E80 001:651.852 - 0.051ms returns 0x00
T0E80 001:651.888 JLINK_WriteReg(R5, 0x00000000)
T0E80 001:651.922 - 0.055ms returns 0x00
T0E80 001:651.966 JLINK_WriteReg(R6, 0x00000000)
T0E80 001:652.000 - 0.051ms returns 0x00
T0E80 001:652.036 JLINK_WriteReg(R7, 0x00000000)
T0E80 001:652.070 - 0.051ms returns 0x00
T0E80 001:652.106 JLINK_WriteReg(R8, 0x00000000)
T0E80 001:652.140 - 0.051ms returns 0x00
T0E80 001:652.177 JLINK_WriteReg(R9, 0x20000194)
T0E80 001:652.211 - 0.050ms returns 0x00
T0E80 001:652.247 JLINK_WriteReg(R10, 0x00000000)
T0E80 001:652.281 - 0.050ms returns 0x00
T0E80 001:652.317 JLINK_WriteReg(R11, 0x00000000)
T0E80 001:652.352 - 0.051ms returns 0x00
T0E80 001:652.388 JLINK_WriteReg(R12, 0x00000000)
T0E80 001:652.422 - 0.050ms returns 0x00
T0E80 001:652.458 JLINK_WriteReg(R13 (SP), 0x20001000)
T0E80 001:652.493 - 0.051ms returns 0x00
T0E80 001:652.529 JLINK_WriteReg(R14, 0x20000001)
T0E80 001:652.563 - 0.051ms returns 0x00
T0E80 001:652.600 JLINK_WriteReg(R15 (PC), 0x20000120)
T0E80 001:652.634 - 0.051ms returns 0x00
T0E80 001:652.670 JLINK_WriteReg(XPSR, 0x01000000)
T0E80 001:652.704 - 0.050ms returns 0x00
T0E80 001:652.740 JLINK_WriteReg(MSP, 0x20001000)
T0E80 001:652.774 - 0.050ms returns 0x00
T0E80 001:652.810 JLINK_WriteReg(PSP, 0x20001000)
T0E80 001:652.844 - 0.070ms returns 0x00
T0E80 001:652.901 JLINK_WriteReg(CFBP, 0x00000000)
T0E80 001:652.936 - 0.051ms returns 0x00
T0E80 001:652.973   JLINK_SetBPEx(Addr = 0x20000000, Type = 0xFFFFFFF2)
T0E80 001:653.025 - 0.069ms returns 0x0000000C
T0E80 001:653.061 JLINK_Go()
T0E80 001:653.107   CPU_ReadMem(4 bytes @ 0xE0001000)
T0E80 001:657.538 - 4.521ms
T0E80 001:657.613 JLINK_IsHalted()
T0E80 001:658.354 - 0.773ms returns FALSE
T0E80 001:664.928 JLINK_IsHalted()
T0E80 001:668.792   CPU_ReadMem(2 bytes @ 0x20000000)
T0E80 001:670.241 - 5.370ms returns TRUE
T0E80 001:670.334 JLINK_ReadReg(R15 (PC))
T0E80 001:670.388 - 0.078ms returns 0x20000000
